time	V(vpwrout)	I(Pwrout)
Step Information: Freq=500K  (Run: 1/9)
0.000000000000000e+000	0.000000e+000	0.000000e+000
3.906249984391395e-014	9.520737e-016	9.423242e-021
7.812499968782791e-014	1.913196e-015	1.912883e-020
1.562499993756558e-013	3.844728e-015	3.854000e-020
4.999999980020986e-012	1.236397e-013	1.236103e-018
9.999999960041972e-012	2.473707e-013	2.473618e-018
1.999999992008394e-011	4.950413e-013	4.950071e-018
3.001691349652261e-011	7.435443e-013	7.435237e-018
4.093452521217659e-011	1.015181e-012	1.015131e-017
5.078751174918823e-011	1.261627e-012	1.261578e-017
6.379759181167548e-011	1.590082e-012	1.590101e-017
7.896728726313359e-011	1.979833e-012	1.979960e-017
9.900092398062589e-011	2.511608e-012	2.511778e-017
1.229508880424880e-010	3.187224e-012	3.187317e-017
1.537855999100411e-010	4.155859e-012	4.155925e-017
1.912589649855932e-010	5.566856e-012	5.566914e-017
2.388801082216564e-010	7.932790e-012	7.932661e-017
2.973513346574582e-010	1.220357e-011	1.220326e-016
3.710806500758734e-010	2.091368e-011	2.091349e-016
4.621640042713532e-010	3.963929e-011	3.963930e-016
5.764898232329656e-010	8.123576e-011	8.123560e-016
7.024276713298687e-010	1.610557e-010	1.610550e-015
8.386016081432165e-010	3.023915e-010	3.023928e-015
9.616628684294890e-010	5.012581e-010	5.012611e-015
1.092441647657279e-009	8.315923e-010	8.315956e-015
1.281236318470515e-009	1.563802e-009	1.563803e-014
1.475829180724498e-009	2.750009e-009	2.750011e-014
1.727250185172766e-009	5.155826e-009	5.155844e-014
1.996072821281408e-009	9.213362e-009	9.213398e-014
2.328419707612323e-009	1.709751e-008	1.709759e-013
2.695278670850898e-009	3.080503e-008	3.080530e-013
3.137730440572533e-009	5.678500e-008	5.678573e-013
3.635688569651937e-009	1.027934e-007	1.027959e-012
4.226953916857881e-009	1.886319e-007	1.886355e-012
4.899561551728441e-009	3.422960e-007	3.422980e-012
5.692909783027004e-009	6.055337e-007	6.055345e-012
6.154020835661966e-009	8.107795e-007	8.107812e-012
6.481663862162563e-009	9.936480e-007	9.936462e-012
6.826819033242777e-009	1.221944e-006	1.221938e-011
7.197276526692259e-009	1.501484e-006	1.501483e-011
7.338597746249167e-009	1.622018e-006	1.622018e-011
7.461615773484720e-009	1.740307e-006	1.740308e-011
7.634605768575310e-009	1.922541e-006	1.922544e-011
7.762112984369724e-009	2.066960e-006	2.066968e-011
7.878558257453342e-009	2.206954e-006	2.206970e-011
8.014181983894499e-009	2.378956e-006	2.378969e-011
8.208033837084868e-009	2.642925e-006	2.642925e-011
8.549997330236629e-009	3.168579e-006	3.168573e-011
9.233924316540151e-009	4.422510e-006	4.422509e-011
1.007432639217493e-008	6.339160e-006	6.339160e-011
1.094407253558760e-008	8.791997e-006	8.791985e-011
1.148268740544266e-008	1.066045e-005	1.066042e-010
1.225461661876658e-008	1.390979e-005	1.390975e-010
1.307144195651111e-008	1.806714e-005	1.806710e-010
1.401195253043782e-008	2.390341e-005	2.390338e-010
1.493092990550337e-008	3.086620e-005	3.086617e-010
1.595544630200229e-008	4.034204e-005	4.034204e-010
1.703249767166609e-008	5.289879e-005	5.289880e-010
1.883532202072065e-008	8.188176e-005	8.188176e-010
2.203432124414176e-008	1.565376e-004	1.565376e-009
2.535444328969650e-008	2.706426e-004	2.706427e-009
2.846436167072881e-008	4.270971e-004	4.270972e-009
3.189485920919289e-008	6.600739e-004	6.600740e-009
3.385025184474102e-008	8.276469e-004	8.276470e-009
3.536794325767804e-008	9.836358e-004	9.836358e-009
3.687379463323670e-008	1.160747e-003	1.160747e-008
3.831947358129260e-008	1.354667e-003	1.354667e-008
4.031043844609106e-008	1.657660e-003	1.657660e-008
4.188618432881509e-008	1.930083e-003	1.930082e-008
4.372717451096728e-008	2.290251e-003	2.290250e-008
4.532020320465870e-008	2.639946e-003	2.639947e-008
4.706145602834652e-008	3.067626e-003	3.067625e-008
4.876096726325039e-008	3.545273e-003	3.545271e-008
5.215998973305813e-008	4.655999e-003	4.656000e-008
5.532038737238481e-008	5.884551e-003	5.884551e-008
5.922663737238481e-008	7.718676e-003	7.718673e-008
6.313288737238481e-008	9.919518e-003	9.919515e-008
6.703913737238482e-008	1.254715e-002	1.254715e-007
7.094538737238482e-008	1.564664e-002	1.564664e-007
7.485163737238482e-008	1.926282e-002	1.926283e-007
7.875788737238482e-008	2.343987e-002	2.343988e-007
8.266413737238483e-008	2.822093e-002	2.822094e-007
8.657038737238483e-008	3.364786e-002	3.364787e-007
9.047663737238483e-008	3.976111e-002	3.976111e-007
9.438288737238483e-008	4.659968e-002	4.659965e-007
9.828913737238484e-008	5.420111e-002	5.420109e-007
1.021953873723848e-007	6.260163e-002	6.260162e-007
1.061016373723848e-007	7.183628e-002	7.183628e-007
1.100078873723848e-007	8.193899e-002	8.193899e-007
1.139141373723848e-007	9.294282e-002	9.294280e-007
1.178203873723849e-007	1.048800e-001	1.048800e-006
1.217266373723849e-007	1.177823e-001	1.177823e-006
1.256328873723848e-007	1.316808e-001	1.316807e-006
1.295391373723848e-007	1.466061e-001	1.466061e-006
1.334453873723848e-007	1.625886e-001	1.625885e-006
1.373516373723848e-007	1.796569e-001	1.796569e-006
1.412578873723848e-007	1.978371e-001	1.978370e-006
1.451641373723848e-007	2.171500e-001	2.171501e-006
1.529766373723848e-007	2.592312e-001	2.592312e-006
1.607891373723847e-007	3.059583e-001	3.059582e-006
1.686016373723847e-007	3.573021e-001	3.573021e-006
1.764141373723847e-007	4.131504e-001	4.131503e-006
1.881328873723847e-007	5.049295e-001	5.049294e-006
1.998516373723846e-007	6.054429e-001	6.054429e-006
2.115703873723846e-007	7.134045e-001	7.134046e-006
2.193828873723846e-007	7.887500e-001	7.887499e-006
2.271953873723846e-007	8.661840e-001	8.661843e-006
2.311016373723845e-007	9.055080e-001	9.055082e-006
2.350078873723845e-007	9.451385e-001	9.451383e-006
2.389141373723845e-007	9.849989e-001	9.849986e-006
2.428203873723845e-007	1.025012e+000	1.025011e-005
2.467266373723845e-007	1.065097e+000	1.065097e-005
2.506328873723845e-007	1.105175e+000	1.105175e-005
2.545391373723845e-007	1.145163e+000	1.145163e-005
2.584453873723845e-007	1.184980e+000	1.184980e-005
2.623516373723845e-007	1.224542e+000	1.224542e-005
2.662578873723844e-007	1.263765e+000	1.263765e-005
2.701641373723844e-007	1.302567e+000	1.302567e-005
2.740703873723844e-007	1.340864e+000	1.340864e-005
2.779766373723844e-007	1.378572e+000	1.378572e-005
2.818828873723844e-007	1.415609e+000	1.415609e-005
2.896953873723844e-007	1.487341e+000	1.487341e-005
2.975078873723844e-007	1.555412e+000	1.555411e-005
3.053203873723843e-007	1.619191e+000	1.619192e-005
3.131328873723843e-007	1.678071e+000	1.678071e-005
3.209453873723843e-007	1.731473e+000	1.731473e-005
3.248516373723843e-007	1.755946e+000	1.755946e-005
3.287578873723843e-007	1.778847e+000	1.778848e-005
3.326641373723843e-007	1.800113e+000	1.800113e-005
3.365703873723843e-007	1.819683e+000	1.819683e-005
3.404766373723842e-007	1.837500e+000	1.837500e-005
3.443828873723842e-007	1.853508e+000	1.853508e-005
3.521953873723842e-007	1.879896e+000	1.879896e-005
3.561016373723842e-007	1.890179e+000	1.890179e-005
3.600078873723842e-007	1.898463e+000	1.898464e-005
3.639141373723842e-007	1.904709e+000	1.904710e-005
3.678203873723842e-007	1.908880e+000	1.908880e-005
3.717266373723842e-007	1.911404e+000	1.911403e-005
3.722149186223842e-007	1.911559e+000	1.911558e-005
3.731914811223842e-007	1.911679e+000	1.911681e-005
3.734587428135298e-007	1.911696e+000	1.911696e-005
3.736467076579314e-007	1.911698e+000	1.911689e-005
3.737430741474597e-007	1.911698e+000	1.911682e-005
3.738258427050052e-007	1.911697e+000	1.911679e-005
3.739022610877907e-007	1.911696e+000	1.911683e-005
3.740550978533617e-007	1.911694e+000	1.911693e-005
3.743607713845037e-007	1.911685e+000	1.911690e-005
3.749721184467877e-007	1.911660e+000	1.911653e-005
3.751106991121859e-007	1.911653e+000	1.908777e-005
3.751201213275620e-007	1.911652e+000	1.910919e-005
3.751268520351126e-007	1.911652e+000	1.911423e-005
3.751354928879636e-007	1.911651e+000	1.911763e-005
3.751435018809271e-007	1.911651e+000	1.912401e-005
3.754176746488516e-007	1.911633e+000	1.911643e-005
3.755955342988617e-007	1.911620e+000	1.911613e-005
3.759512535988818e-007	1.911591e+000	1.911584e-005
3.766626921989219e-007	1.911521e+000	1.911520e-005
3.780855693990023e-007	1.911360e+000	1.911361e-005
3.794478021982557e-007	1.911194e+000	1.911193e-005
3.806763851573986e-007	1.911045e+000	1.911044e-005
3.817196674535716e-007	1.910932e+000	1.910931e-005
3.826297489225006e-007	1.910852e+000	1.910852e-005
3.835196612647987e-007	1.910796e+000	1.910795e-005
3.844090714393278e-007	1.910760e+000	1.910764e-005
3.846045690960408e-007	1.910756e+000	1.910767e-005
3.847811848420866e-007	1.910754e+000	1.910764e-005
3.849353489358483e-007	1.910753e+000	1.910828e-005
3.849823903658447e-007	1.910753e+000	1.910770e-005
3.849969929907919e-007	1.910753e+000	1.910728e-005
3.850156996881456e-007	1.910753e+000	1.910701e-005
3.850264299385238e-007	1.910753e+000	1.910744e-005
3.850393441852010e-007	1.910753e+000	1.910795e-005
3.850651726785555e-007	1.910753e+000	1.910771e-005
3.851168296652645e-007	1.910753e+000	1.910728e-005
3.852201436386825e-007	1.910754e+000	1.910741e-005
3.853894919241231e-007	1.910756e+000	1.910754e-005
3.857281884950043e-007	1.910763e+000	1.910766e-005
3.864055816367667e-007	1.910789e+000	1.910785e-005
3.873782466288769e-007	1.910849e+000	1.910845e-005
3.885568561842823e-007	1.910949e+000	1.910947e-005
3.898023762795795e-007	1.911079e+000	1.911079e-005
3.912905239173823e-007	1.911245e+000	1.911246e-005
3.928424957465204e-007	1.911409e+000	1.911410e-005
3.940151023510637e-007	1.911510e+000	1.911511e-005
3.949514775025236e-007	1.911565e+000	1.911565e-005
3.958180653936555e-007	1.911590e+000	1.911590e-005
3.966066125747189e-007	1.911590e+000	1.911590e-005
3.973593958602648e-007	1.911565e+000	1.911565e-005
3.985849892502371e-007	1.911491e+000	1.911492e-005
3.991891464484368e-007	1.911442e+000	1.911444e-005
3.995059278343370e-007	1.911412e+000	1.911413e-005
3.996602144990840e-007	1.911396e+000	1.911508e-005
3.999633466806233e-007	1.911363e+000	1.911354e-005
4.002077129174555e-007	1.911336e+000	1.911326e-005
4.006278505775151e-007	1.911287e+000	1.911285e-005
4.012409737818758e-007	1.911214e+000	1.911214e-005
4.020337073558480e-007	1.911118e+000	1.911116e-005
4.023003214425722e-007	1.911085e+000	1.911081e-005
4.024171086330643e-007	1.911071e+000	1.885376e-005
4.024172011543984e-007	1.911071e+000	1.871586e-005
4.024173245161771e-007	1.911071e+000	1.906273e-005
4.024174723508153e-007	1.911071e+000	1.914725e-005
4.024177123427126e-007	1.911071e+000	1.908342e-005
4.026629840618163e-007	1.911040e+000	1.911037e-005
4.029087357647146e-007	1.911010e+000	1.911018e-005
4.034002391705113e-007	1.910954e+000	1.910959e-005
4.043832459821046e-007	1.910852e+000	1.910856e-005
4.053747994843242e-007	1.910769e+000	1.910771e-005
4.062716087976900e-007	1.910712e+000	1.910752e-005
4.062894881703439e-007	1.910711e+000	1.910751e-005
4.063252469156516e-007	1.910709e+000	1.910740e-005
4.063967644062673e-007	1.910706e+000	1.910725e-005
4.065397993874986e-007	1.910701e+000	1.910725e-005
4.066125738361934e-007	1.910698e+000	1.910710e-005
4.066570176745404e-007	1.910697e+000	1.910688e-005
4.066906644612560e-007	1.910696e+000	1.910692e-005
4.067135387048587e-007	1.910695e+000	1.910701e-005
4.067326184028061e-007	1.910695e+000	1.910723e-005
4.067547985134290e-007	1.910694e+000	1.910748e-005
4.067782917461262e-007	1.910693e+000	1.910721e-005
4.067959420394249e-007	1.910693e+000	1.910701e-005
4.068141598520846e-007	1.910692e+000	1.910680e-005
4.068361447715912e-007	1.910692e+000	1.910655e-005
4.068782522921516e-007	1.910691e+000	1.910664e-005
4.069402832154206e-007	1.910689e+000	1.910678e-005
4.070588104228143e-007	1.910687e+000	1.910684e-005
4.072875202079469e-007	1.910684e+000	1.910696e-005
4.074027339453468e-007	1.910683e+000	1.910685e-005
4.074721199048229e-007	1.910683e+000	1.910678e-005
4.075409070539437e-007	1.910682e+000	1.910602e-005
4.075624199782268e-007	1.910682e+000	1.910535e-005
4.075789662262365e-007	1.910682e+000	1.910565e-005
4.075935762721142e-007	1.910682e+000	1.910650e-005
4.076111423698589e-007	1.910682e+000	1.910701e-005
4.076304660186177e-007	1.910682e+000	1.910701e-005
4.076624186070962e-007	1.910682e+000	1.910694e-005
4.077263237840532e-007	1.910683e+000	1.910674e-005
4.078541341379671e-007	1.910684e+000	1.910672e-005
4.081097548457950e-007	1.910688e+000	1.910687e-005
4.086209962614509e-007	1.910703e+000	1.910702e-005
4.095242737561552e-007	1.910749e+000	1.910748e-005
4.105855152031656e-007	1.910827e+000	1.910827e-005
4.117872468208024e-007	1.910941e+000	1.910940e-005
4.130085156242559e-007	1.911073e+000	1.911074e-005
4.144974260801946e-007	1.911235e+000	1.911236e-005
4.160507288573368e-007	1.911380e+000	1.911381e-005
4.172876103718052e-007	1.911462e+000	1.911463e-005
4.183394823143720e-007	1.911497e+000	1.911498e-005
4.191569607120429e-007	1.911497e+000	1.911497e-005
4.199168003896444e-007	1.911473e+000	1.911471e-005
4.211267195017811e-007	1.911399e+000	1.911398e-005
4.221593455093279e-007	1.911312e+000	1.911315e-005
4.225272448539551e-007	1.911275e+000	1.911278e-005
4.226324084553293e-007	1.911264e+000	1.911265e-005
4.230389606670279e-007	1.911218e+000	1.911219e-005
4.234913245413437e-007	1.911165e+000	1.911160e-005
4.240260848412903e-007	1.911101e+000	1.911102e-005
4.246546046600176e-007	1.911026e+000	1.911023e-005
4.249107586182305e-007	1.910995e+000	1.910994e-005
4.250443925458298e-007	1.910979e+000	1.910982e-005
4.250816906740095e-007	1.910974e+000	1.904586e-005
4.250818402910661e-007	1.910974e+000	1.895428e-005
4.250825527668193e-007	1.910974e+000	1.911842e-005
4.254954721019732e-007	1.910924e+000	1.910919e-005
4.259091994984484e-007	1.910877e+000	1.910877e-005
4.267366542913989e-007	1.910791e+000	1.910791e-005
4.277666009832473e-007	1.910703e+000	1.910703e-005
4.287526721992055e-007	1.910639e+000	1.910638e-005
4.290512429137183e-007	1.910625e+000	1.910627e-005
4.291838041495663e-007	1.910620e+000	1.910638e-005
4.292420039856482e-007	1.910618e+000	1.910664e-005
4.294031779362352e-007	1.910614e+000	1.910608e-005
4.295065895460051e-007	1.910612e+000	1.910606e-005
4.296830612001676e-007	1.910609e+000	1.910602e-005
4.300119514507724e-007	1.910606e+000	1.910615e-005
4.301568274339236e-007	1.910605e+000	1.910620e-005
4.302038503356425e-007	1.910605e+000	1.910614e-005
4.302964099984242e-007	1.910605e+000	1.910635e-005
4.303963317485253e-007	1.910606e+000	1.910635e-005
4.305961752487276e-007	1.910609e+000	1.910618e-005
4.309958622491320e-007	1.910620e+000	1.910621e-005
4.317952362499410e-007	1.910655e+000	1.910657e-005
4.327941690332602e-007	1.910721e+000	1.910721e-005
4.339877697278575e-007	1.910827e+000	1.910826e-005
4.351190557439488e-007	1.910944e+000	1.910944e-005
4.363627099234488e-007	1.911080e+000	1.911080e-005
4.378118847936161e-007	1.911225e+000	1.911226e-005
4.392774932544452e-007	1.911339e+000	1.911340e-005
4.405144328118650e-007	1.911398e+000	1.911398e-005
4.412244420187886e-007	1.911408e+000	1.911407e-005
4.421421503802108e-007	1.911392e+000	1.911390e-005
4.430694267303377e-007	1.911348e+000	1.911347e-005
4.442235019164906e-007	1.911264e+000	1.911267e-005
4.448433944140537e-007	1.911207e+000	1.911212e-005
4.451685493623740e-007	1.911173e+000	1.911179e-005
4.453023556059118e-007	1.911159e+000	1.911136e-005
4.455818232951879e-007	1.911128e+000	1.911116e-005
4.458141481826865e-007	1.911101e+000	1.911097e-005
4.461892593654730e-007	1.911057e+000	1.911056e-005
4.467659974933068e-007	1.910989e+000	1.910991e-005
4.472336706741604e-007	1.910933e+000	1.910932e-005
4.475941736759023e-007	1.910890e+000	1.910874e-005
4.476532086296357e-007	1.910883e+000	1.932929e-005
4.476532737619234e-007	1.910883e+000	1.947085e-005
4.476533606049738e-007	1.910883e+000	1.918695e-005
4.476534394560068e-007	1.910883e+000	1.907349e-005
4.476540942245787e-007	1.910883e+000	1.912254e-005
4.479148612108451e-007	1.910852e+000	1.910862e-005
4.481743412382485e-007	1.910821e+000	1.910817e-005
4.486933012930553e-007	1.910765e+000	1.910755e-005
4.497312214026690e-007	1.910665e+000	1.910661e-005
4.506693142743716e-007	1.910595e+000	1.910594e-005
4.516801093731264e-007	1.910543e+000	1.910542e-005
4.520553685727384e-007	1.910531e+000	1.910530e-005
4.524062944781422e-007	1.910526e+000	1.910524e-005
4.527471382912185e-007	1.910525e+000	1.910516e-005
4.528140351978202e-007	1.910525e+000	1.910527e-005
4.528783658694394e-007	1.910525e+000	1.910549e-005
4.529594044834380e-007	1.910526e+000	1.910556e-005
4.532288002726430e-007	1.910530e+000	1.910534e-005
4.535879946582496e-007	1.910540e+000	1.910543e-005
4.543063834294628e-007	1.910573e+000	1.910578e-005
4.553346892517860e-007	1.910642e+000	1.910644e-005
4.565585253242896e-007	1.910749e+000	1.910749e-005
4.576801023960625e-007	1.910865e+000	1.910865e-005
4.588195913580363e-007	1.910989e+000	1.910988e-005
4.599160169682806e-007	1.911102e+000	1.911101e-005
4.611834232729522e-007	1.911207e+000	1.911208e-005
4.626945574781741e-007	1.911292e+000	1.911293e-005
4.635703004639731e-007	1.911313e+000	1.911313e-005
4.644414468716338e-007	1.911304e+000	1.911303e-005
4.653135420026614e-007	1.911269e+000	1.911267e-005
4.666123315359745e-007	1.911180e+000	1.911177e-005
4.674467097471619e-007	1.911106e+000	1.911105e-005
4.678024216045970e-007	1.911069e+000	1.911078e-005
4.679342524703101e-007	1.911055e+000	1.910888e-005
4.682720368470246e-007	1.911017e+000	1.911014e-005
4.685549130785176e-007	1.910985e+000	1.910979e-005
4.689833869587386e-007	1.910935e+000	1.910933e-005
4.697133042338458e-007	1.910849e+000	1.910844e-005
4.699893691658547e-007	1.910816e+000	1.910817e-005
4.701415443777514e-007	1.910799e+000	1.910808e-005
4.701990520629311e-007	1.910792e+000	1.909075e-005
4.701994356788451e-007	1.910792e+000	1.913309e-005
4.702392240899908e-007	1.910787e+000	1.911008e-005
4.704325005738419e-007	1.910764e+000	1.910746e-005
4.706321232140487e-007	1.910741e+000	1.910732e-005
4.710095685061079e-007	1.910698e+000	1.910693e-005
4.717400570218488e-007	1.910624e+000	1.910622e-005
4.726932120850935e-007	1.910545e+000	1.910546e-005
4.738636660015270e-007	1.910470e+000	1.910471e-005
4.741202895553276e-007	1.910458e+000	1.910456e-005
4.742636794783205e-007	1.910454e+000	1.910470e-005
4.745079767863466e-007	1.910448e+000	1.910464e-005
4.749295946519679e-007	1.910442e+000	1.910431e-005
4.750388924337484e-007	1.910441e+000	1.910430e-005
4.751718790452405e-007	1.910441e+000	1.910434e-005
4.751958361815962e-007	1.910441e+000	1.910405e-005
4.752210168052529e-007	1.910441e+000	1.910350e-005
4.753818429508252e-007	1.910442e+000	1.910457e-005
4.755426878343971e-007	1.910444e+000	1.910436e-005
4.758643776015408e-007	1.910451e+000	1.910443e-005
4.765077571358281e-007	1.910475e+000	1.910469e-005
4.774788117466871e-007	1.910531e+000	1.910529e-005
4.786437273720384e-007	1.910624e+000	1.910624e-005
4.797160988965234e-007	1.910729e+000	1.910729e-005
4.808096587367732e-007	1.910846e+000	1.910845e-005
4.819315075579830e-007	1.910965e+000	1.910965e-005
4.829485162648454e-007	1.911062e+000	1.911061e-005
4.839820850374257e-007	1.911140e+000	1.911139e-005
4.851520038342512e-007	1.911200e+000	1.911197e-005
4.859805466772299e-007	1.911218e+000	1.911215e-005
4.868257791619701e-007	1.911212e+000	1.911211e-005
4.876607679963788e-007	1.911181e+000	1.911182e-005
4.889378717317882e-007	1.911098e+000	1.911100e-005
4.899302803491119e-007	1.911013e+000	1.911012e-005
4.903182245072190e-007	1.910974e+000	1.910963e-005
4.904668126935898e-007	1.910958e+000	1.911260e-005
4.908023445521438e-007	1.910921e+000	1.910926e-005
4.911014842009203e-007	1.910887e+000	1.910889e-005
4.915272250798331e-007	1.910838e+000	1.910834e-005
4.922804297938809e-007	1.910750e+000	1.910744e-005
4.925413986046748e-007	1.910720e+000	1.910718e-005
