time	V(vpwrout)	I(Pwrout)
Step Information: Freq=500K  (Run: 1/7)
0.000000000000000e+000	0.000000e+000	0.000000e+000
9.765624452758720e-014	2.403203e-015	2.453762e-020
1.588150643624724e-013	3.915345e-015	4.101051e-020
2.811327040322427e-013	6.954190e-015	7.256249e-020
5.257679833717834e-013	1.307283e-014	1.320019e-019
9.595140747873679e-013	2.415469e-014	2.411220e-019
1.827006257618537e-012	4.794141e-014	4.787148e-019
3.561990623280875e-012	1.075242e-013	1.075308e-018
7.031959354605550e-012	3.187763e-013	3.188373e-018
1.397189681725490e-011	1.458066e-012	1.458280e-017
2.785177174255360e-011	8.118724e-012	8.118861e-017
4.900846563263261e-011	3.375569e-011	3.375592e-016
7.397454343753412e-011	9.662236e-011	9.662204e-016
9.765870438857111e-011	2.038848e-010	2.038765e-015
1.224492834800921e-010	3.881039e-010	3.880869e-015
1.529519534198901e-010	7.433987e-010	7.433922e-015
1.923911330273119e-010	1.454129e-009	1.454114e-014
2.422538225923309e-010	2.846712e-009	2.846643e-014
3.064232098903634e-010	5.626061e-009	5.625954e-014
3.883035624827824e-010	1.112864e-008	1.112847e-013
4.945256969751863e-010	2.220297e-008	2.220282e-013
6.322740441495147e-010	4.449116e-008	4.449139e-013
8.132897359584818e-010	8.996921e-008	8.997188e-013
1.051433811267699e-009	1.829783e-007	1.829834e-012
1.365847710628491e-009	3.735415e-007	3.735427e-012
1.778389516374021e-009	7.422142e-007	7.422131e-012
2.173739312273603e-009	1.227658e-006	1.227649e-011
2.465571656199083e-009	1.693124e-006	1.693092e-011
2.605350423233737e-009	1.982302e-006	1.982258e-011
2.722564585860853e-009	2.287906e-006	2.287863e-011
2.821312995525904e-009	2.594565e-006	2.594548e-011
2.923990975944019e-009	2.961302e-006	2.961331e-011
3.020922851785460e-009	3.363389e-006	3.363443e-011
3.214786603468341e-009	4.332157e-006	4.332195e-011
3.509028268965615e-009	6.267222e-006	6.267198e-011
4.097511599960162e-009	1.192307e-005	1.192302e-010
5.037848772906993e-009	2.530943e-005	2.530946e-010
5.950420252452602e-009	4.457455e-005	4.457458e-010
7.049268632645444e-009	7.839196e-005	7.839194e-010
8.386519592869005e-009	1.363676e-004	1.363675e-009
9.824850369494258e-009	2.211609e-004	2.211608e-009
1.114733014082480e-008	3.240728e-004	3.240728e-009
1.257144614974256e-008	4.651608e-004	4.651609e-009
1.392546547980307e-008	6.323747e-004	6.323748e-009
1.551452990009049e-008	8.730543e-004	8.730541e-009
1.708913403953001e-008	1.158437e-003	1.158437e-008
1.841320712790304e-008	1.441546e-003	1.441546e-008
1.988532442991284e-008	1.804778e-003	1.804778e-008
2.119541147141276e-008	2.172585e-003	2.172585e-008
2.265604239903247e-008	2.639785e-003	2.639786e-008
2.453983146592310e-008	3.336072e-003	3.336073e-008
2.734323211556449e-008	4.546287e-003	4.546289e-008
3.019915817261689e-008	6.005292e-003	6.005292e-008
3.384079704038893e-008	8.211444e-003	8.211443e-008
3.777394416561302e-008	1.102918e-002	1.102918e-007
4.276997338725875e-008	1.525943e-002	1.525943e-007
4.864609086211322e-008	2.115655e-002	2.115655e-007
5.650989537813197e-008	3.059175e-002	3.059174e-007
6.627552037813197e-008	4.460753e-002	4.460753e-007
7.604114537813197e-008	6.136307e-002	6.136307e-007
8.580677037813197e-008	8.128117e-002	8.128087e-007
9.557239537813197e-008	1.047249e-001	1.047241e-006
1.053380203781320e-007	1.320848e-001	1.320839e-006
1.151036453781320e-007	1.637556e-001	1.637549e-006
1.248692703781320e-007	2.001101e-001	2.001096e-006
1.346348953781320e-007	2.413504e-001	2.413499e-006
1.444005203781320e-007	2.872038e-001	2.872034e-006
1.541661453781320e-007	3.368528e-001	3.368526e-006
1.639317703781320e-007	3.892930e-001	3.892929e-006
1.736973953781320e-007	4.436631e-001	4.436630e-006
1.834630203781319e-007	4.992784e-001	4.992783e-006
1.932286453781319e-007	5.555675e-001	5.555674e-006
2.029942703781319e-007	6.120361e-001	6.120360e-006
2.127598953781319e-007	6.682447e-001	6.682446e-006
2.225255203781319e-007	7.237951e-001	7.237951e-006
2.322911453781319e-007	7.783220e-001	7.783219e-006
2.420567703781319e-007	8.314871e-001	8.314870e-006
2.518223953781319e-007	8.829749e-001	8.829747e-006
2.615880203781319e-007	9.324899e-001	9.324897e-006
2.713536453781320e-007	9.797516e-001	9.797515e-006
2.811192703781320e-007	1.024488e+000	1.024488e-005
2.908848953781320e-007	1.066427e+000	1.066427e-005
3.006505203781320e-007	1.105293e+000	1.105293e-005
3.104161453781321e-007	1.140804e+000	1.140804e-005
3.201817703781321e-007	1.172678e+000	1.172678e-005
3.299473953781321e-007	1.200632e+000	1.200631e-005
3.397130203781321e-007	1.224385e+000	1.224385e-005
3.494786453781322e-007	1.243662e+000	1.243662e-005
3.592442703781322e-007	1.258194e+000	1.258194e-005
3.690098953781322e-007	1.267720e+000	1.267720e-005
3.787755203781323e-007	1.272986e+000	1.272986e-005
3.815436272643773e-007	1.273580e+000	1.273579e-005
3.828314474584775e-007	1.273621e+000	1.273621e-005
3.840028983631409e-007	1.273620e+000	1.273620e-005
3.847227040612988e-007	1.273618e+000	1.273616e-005
3.854657344468324e-007	1.273616e+000	1.273614e-005
3.865164077354353e-007	1.273613e+000	1.273612e-005
3.877473365516053e-007	1.273609e+000	1.273608e-005
3.882456063019766e-007	1.273608e+000	1.273607e-005
3.885047668867806e-007	1.273607e+000	1.273084e-005
3.885054293111109e-007	1.273607e+000	1.273157e-005
3.885067541597716e-007	1.273607e+000	1.273553e-005
3.885094038570930e-007	1.273607e+000	1.273827e-005
3.885134003453853e-007	1.273607e+000	1.273312e-005
3.885177520278730e-007	1.273607e+000	1.273296e-005
3.885225214127779e-007	1.273607e+000	1.273619e-005
3.885315455444160e-007	1.273607e+000	1.273831e-005
3.885489854888580e-007	1.273607e+000	1.273700e-005
3.885838653777419e-007	1.273607e+000	1.273580e-005
3.886536251555096e-007	1.273607e+000	1.273610e-005
3.887642912623403e-007	1.273606e+000	1.273593e-005
3.913464923526534e-007	1.273598e+000	1.273597e-005
3.941008401823208e-007	1.273589e+000	1.273589e-005
3.996095358416555e-007	1.273570e+000	1.273570e-005
4.093751608416555e-007	1.273535e+000	1.273535e-005
4.191407858416555e-007	1.273499e+000	1.273499e-005
4.289064108416556e-007	1.273462e+000	1.273462e-005
4.386720358416556e-007	1.273426e+000	1.273426e-005
4.484376608416556e-007	1.273389e+000	1.273389e-005
4.582032858416556e-007	1.273352e+000	1.273352e-005
4.679689108416557e-007	1.273314e+000	1.273314e-005
4.777345358416557e-007	1.273277e+000	1.273277e-005
4.818308973336969e-007	1.273261e+000	1.273261e-005
4.840366878918286e-007	1.273252e+000	1.273252e-005
4.854096395568765e-007	1.273247e+000	1.273247e-005
4.865892072144675e-007	1.273242e+000	1.273242e-005
4.878843819951254e-007	1.273237e+000	1.273237e-005
4.904747315564413e-007	1.273227e+000	1.273227e-005
4.944410225723353e-007	1.273212e+000	1.273211e-005
4.978648570459480e-007	1.273198e+000	1.273198e-005
5.005744999269695e-007	1.273188e+000	1.273188e-005
5.032936004067610e-007	1.273177e+000	1.273178e-005
5.060185251125762e-007	1.273166e+000	1.273167e-005
5.091530575675159e-007	1.273154e+000	1.273154e-005
5.133586570288328e-007	1.273137e+000	1.273137e-005
5.182845938056810e-007	1.273118e+000	1.273117e-005
5.243305665014287e-007	1.273094e+000	1.273094e-005
5.312878508158851e-007	1.273066e+000	1.273066e-005
5.399020348460574e-007	1.273032e+000	1.273031e-005
5.496676598460574e-007	1.272992e+000	1.272991e-005
5.594332848460574e-007	1.272952e+000	1.272952e-005
5.691989098460574e-007	1.272914e+000	1.272914e-005
5.789645348460575e-007	1.272876e+000	1.272876e-005
5.887301598460575e-007	1.272840e+000	1.272840e-005
5.984957848460575e-007	1.272805e+000	1.272805e-005
6.082614098460575e-007	1.272772e+000	1.272772e-005
6.180270348460576e-007	1.272741e+000	1.272741e-005
6.277926598460576e-007	1.272712e+000	1.272712e-005
6.375582848460576e-007	1.272685e+000	1.272685e-005
6.473239098460576e-007	1.272661e+000	1.272661e-005
6.570895348460577e-007	1.272639e+000	1.272639e-005
6.668551598460577e-007	1.272620e+000	1.272620e-005
6.766207848460577e-007	1.272602e+000	1.272602e-005
6.863864098460577e-007	1.272585e+000	1.272585e-005
7.254489098460578e-007	1.272520e+000	1.272520e-005
7.352145348460579e-007	1.272504e+000	1.272504e-005
7.449801598460579e-007	1.272489e+000	1.272489e-005
7.742770348460580e-007	1.272444e+000	1.272444e-005
7.840426598460580e-007	1.272429e+000	1.272429e-005
7.938082848460580e-007	1.272414e+000	1.272414e-005
8.035739098460581e-007	1.272399e+000	1.272399e-005
8.133395348460581e-007	1.272382e+000	1.272382e-005
8.231051598460581e-007	1.272362e+000	1.272362e-005
8.328707848460581e-007	1.272339e+000	1.272339e-005
8.426364098460582e-007	1.272312e+000	1.272313e-005
8.524020348460582e-007	1.272282e+000	1.272282e-005
8.621676598460582e-007	1.272248e+000	1.272248e-005
8.719332848460582e-007	1.272209e+000	1.272209e-005
8.816989098460583e-007	1.272165e+000	1.272166e-005
8.914645348460583e-007	1.272116e+000	1.272116e-005
8.981989511353820e-007	1.272076e+000	1.272076e-005
9.005842248636283e-007	1.272057e+000	1.272064e-005
9.006881644285381e-007	1.272056e+000	1.272064e-005
9.008267505150844e-007	1.272054e+000	1.272048e-005
9.010102583928298e-007	1.272052e+000	1.272044e-005
9.013497212152135e-007	1.272048e+000	1.272048e-005
9.184052967877614e-007	1.271814e+000	1.271814e-005
9.281709217877614e-007	1.271670e+000	1.271670e-005
9.379365467877615e-007	1.271519e+000	1.271519e-005
9.574677967877614e-007	1.271202e+000	1.271202e-005
9.769990467877615e-007	1.270868e+000	1.270868e-005
9.965302967877615e-007	1.270518e+000	1.270517e-005
1.016061546787762e-006	1.270152e+000	1.270151e-005
1.045358421787762e-006	1.269574e+000	1.269574e-005
1.055124046787762e-006	1.269374e+000	1.269374e-005
1.064889671787762e-006	1.269173e+000	1.269173e-005
1.074655296787762e-006	1.268972e+000	1.268972e-005
1.084420921787762e-006	1.268777e+000	1.268777e-005
1.103952171787762e-006	1.268409e+000	1.268408e-005
1.123483421787762e-006	1.268073e+000	1.268073e-005
1.133249046787762e-006	1.267918e+000	1.267919e-005
1.143014671787762e-006	1.267773e+000	1.267773e-005
1.162545921787762e-006	1.267509e+000	1.267509e-005
1.182077171787762e-006	1.267285e+000	1.267285e-005
1.211374046787762e-006	1.267027e+000	1.267027e-005
1.221139671787762e-006	1.266962e+000	1.266962e-005
1.230905296787762e-006	1.266907e+000	1.266907e-005
1.240670921787762e-006	1.266863e+000	1.266863e-005
1.250436546787762e-006	1.266831e+000	1.266831e-005
1.260202171787762e-006	1.266810e+000	1.266810e-005
1.269967796787762e-006	1.266799e+000	1.266799e-005
1.272705458702538e-006	1.266798e+000	1.266798e-005
1.274009170902550e-006	1.266798e+000	1.266799e-005
1.275302862709983e-006	1.266798e+000	1.266801e-005
1.277192909158553e-006	1.266799e+000	1.266801e-005
1.279145015087996e-006	1.266800e+000	1.266801e-005
1.282450804102629e-006	1.266802e+000	1.266802e-005
1.289062382131893e-006	1.266809e+000	1.266809e-005
1.298403696121164e-006	1.266823e+000	1.266823e-005
1.308169321121164e-006	1.266843e+000	1.266843e-005
1.317934946121164e-006	1.266870e+000	1.266870e-005
1.327700571121164e-006	1.266903e+000	1.266903e-005
1.337466196121164e-006	1.266941e+000	1.266941e-005
1.347231821121164e-006	1.266983e+000	1.266983e-005
1.356997446121164e-006	1.267027e+000	1.267027e-005
1.366763071121164e-006	1.267073e+000	1.267073e-005
1.376528696121164e-006	1.267120e+000	1.267120e-005
1.396059946121164e-006	1.267219e+000	1.267219e-005
1.415591196121164e-006	1.267321e+000	1.267321e-005
1.435122446121164e-006	1.267426e+000	1.267426e-005
1.464419321121164e-006	1.267584e+000	1.267584e-005
1.493716196121164e-006	1.267743e+000	1.267743e-005
1.503481821121164e-006	1.267797e+000	1.267797e-005
1.513247446121164e-006	1.267850e+000	1.267850e-005
1.523013071121164e-006	1.267904e+000	1.267904e-005
1.532778696121164e-006	1.267958e+000	1.267957e-005
1.542544321121164e-006	1.268012e+000	1.268011e-005
1.552309946121164e-006	1.268065e+000	1.268065e-005
1.562075571121164e-006	1.268116e+000	1.268116e-005
1.581606821121164e-006	1.268214e+000	1.268215e-005
1.591372446121164e-006	1.268260e+000	1.268260e-005
1.601138071121164e-006	1.268304e+000	1.268304e-005
1.610903696121164e-006	1.268348e+000	1.268348e-005
1.620669321121165e-006	1.268391e+000	1.268391e-005
1.640200571121165e-006	1.268478e+000	1.268478e-005
1.659731821121165e-006	1.268567e+000	1.268567e-005
1.679263071121165e-006	1.268660e+000	1.268660e-005
1.698794321121165e-006	1.268756e+000	1.268756e-005
1.708559946121165e-006	1.268806e+000	1.268806e-005
1.718325571121165e-006	1.268858e+000	1.268858e-005
1.728091196121165e-006	1.268910e+000	1.268910e-005
1.737856821121165e-006	1.268964e+000	1.268964e-005
1.747622446121165e-006	1.269019e+000	1.269019e-005
1.757388071121165e-006	1.269073e+000	1.269073e-005
1.767153696121165e-006	1.269129e+000	1.269128e-005
1.786684946121165e-006	1.269241e+000	1.269241e-005
1.806216196121165e-006	1.269357e+000	1.269356e-005
1.825747446121165e-006	1.269478e+000	1.269478e-005
1.845278696121165e-006	1.269607e+000	1.269607e-005
1.864809946121165e-006	1.269745e+000	1.269744e-005
1.874575571121165e-006	1.269816e+000	1.269816e-005
1.884341196121165e-006	1.269889e+000	1.269889e-005
1.903872446121165e-006	1.270037e+000	1.270037e-005
1.933169321121165e-006	1.270260e+000	1.270261e-005
1.962466196121165e-006	1.270484e+000	1.270485e-005
1.991763071121165e-006	1.270706e+000	1.270706e-005
2.011294321121165e-006	1.270852e+000	1.270851e-005
2.030825571121165e-006	1.270994e+000	1.270995e-005
2.040591196121165e-006	1.271065e+000	1.271065e-005
2.050356821121165e-006	1.271135e+000	1.271135e-005
2.054014425454980e-006	1.271201e+000	1.271202e-005
2.055501399917186e-006	1.271285e+000	1.271293e-005
2.055526912812434e-006	1.271288e+000	1.271304e-005
2.055577938602929e-006	1.271297e+000	1.271325e-005
2.055679990183919e-006	1.271318e+000	1.271321e-005
2.055841569238046e-006	1.271356e+000	1.271339e-005
2.056110693765419e-006	1.271437e+000	1.271431e-005
2.056648942820164e-006	1.271665e+000	1.271664e-005
2.057725440929655e-006	1.272371e+000	1.272364e-005
2.059809749883855e-006	1.274445e+000	1.274440e-005
2.062016814744533e-006	1.277816e+000	1.277814e-005
2.066430944465890e-006	1.287903e+000	1.287904e-005
2.072695420225709e-006	1.308525e+000	1.308525e-005
2.082461045225709e-006	1.351939e+000	1.351938e-005
2.092226670225709e-006	1.406009e+000	1.406008e-005
2.101992295225709e-006	1.468898e+000	1.468898e-005
2.111757920225709e-006	1.537586e+000	1.537586e-005
2.121523545225709e-006	1.609378e+000	1.609379e-005
2.131289170225709e-006	1.681891e+000	1.681891e-005
2.141054795225709e-006	1.753041e+000	1.753041e-005
2.150820420225709e-006	1.821033e+000	1.821034e-005
2.160586045225709e-006	1.884343e+000	1.884344e-005
2.170351670225709e-006	1.941685e+000	1.941684e-005
2.180117295225709e-006	1.991954e+000	1.991952e-005
2.189882920225709e-006	2.034184e+000	2.034181e-005
2.199648545225709e-006	2.067510e+000	2.067507e-005
2.209414170225709e-006	2.091151e+000	2.091149e-005
2.219179795225709e-006	2.106159e+000	2.106159e-005
2.222810086073747e-006	2.109141e+000	2.109141e-005
2.225172610859806e-006	2.109955e+000	2.109955e-005
2.226026454378321e-006	2.110070e+000	2.110070e-005
2.226422416984930e-006	2.110082e+000	2.110084e-005
2.226675043025105e-006	2.110082e+000	2.110089e-005
2.226905657766187e-006	2.110082e+000	2.110088e-005
2.227044452900208e-006	2.110081e+000	2.110080e-005
2.227178809055442e-006	2.110081e+000	2.110076e-005
2.227447521365911e-006	2.110080e+000	2.110080e-005
2.227984945986849e-006	2.110078e+000	2.110078e-005
2.229059795228723e-006	2.110074e+000	2.110071e-005
2.231209493712472e-006	2.110065e+000	2.110065e-005
2.235508890679970e-006	2.110048e+000	2.110048e-005
2.241107252428689e-006	2.110024e+000	2.110026e-005
2.242115239624349e-006	2.110020e+000	2.110020e-005
2.242467444713274e-006	2.110018e+000	2.110378e-005
2.242471774221144e-006	2.110018e+000	2.110319e-005
2.242480433236886e-006	2.110018e+000	2.109960e-005
2.242492789457594e-006	2.110018e+000	2.109720e-005
2.242506534189806e-006	2.110018e+000	2.109896e-005
2.242533880501515e-006	2.110018e+000	2.110071e-005
2.242569858439168e-006	2.110018e+000	2.110089e-005
2.242632068325011e-006	2.110018e+000	2.110057e-005
2.242913604708743e-006	2.110016e+000	2.110006e-005
2.256491444147790e-006	2.109947e+000	2.109947e-005
2.266257069147790e-006	2.109891e+000	2.109891e-005
2.276022694147790e-006	2.109831e+000	2.109831e-005
2.285788319147790e-006	2.109766e+000	2.109766e-005
2.295553944147790e-006	2.109699e+000	2.109698e-005
2.315085194147790e-006	2.109553e+000	2.109554e-005
2.324850819147790e-006	2.109476e+000	2.109476e-005
2.334616444147790e-006	2.109397e+000	2.109397e-005
2.344382069147790e-006	2.109315e+000	2.109315e-005
2.354147694147790e-006	2.109232e+000	2.109232e-005
2.363913319147790e-006	2.109148e+000	2.109147e-005
2.373678944147790e-006	2.109062e+000	2.109061e-005
2.393210194147790e-006	2.108888e+000	2.108888e-005
2.422507069147790e-006	2.108626e+000	2.108627e-005
2.432272694147790e-006	2.108539e+000	2.108540e-005
2.434531733866458e-006	2.108519e+000	2.108520e-005
2.436332121848358e-006	2.108503e+000	2.108504e-005
2.436947233490986e-006	2.108497e+000	2.108496e-005
2.438130081754001e-006	2.108487e+000	2.108481e-005
2.439387526404202e-006	2.108475e+000	2.108475e-005
2.441902415704602e-006	2.108453e+000	2.108455e-005
2.444635272451223e-006	2.108428e+000	2.108430e-005
2.448935679725408e-006	2.108389e+000	2.108389e-005
2.453786294485508e-006	2.108344e+000	2.108344e-005
2.458558379774905e-006	2.108299e+000	2.108300e-005
2.463264331661573e-006	2.108255e+000	2.108255e-005
2.468195431589244e-006	2.108209e+000	2.108209e-005
2.473469183705838e-006	2.108160e+000	2.108160e-005
2.479223584095879e-006	2.108107e+000	2.108108e-005
2.485586141522073e-006	2.108050e+000	2.108049e-005
2.492842506461097e-006	2.107985e+000	2.107984e-005
2.501348255593290e-006	2.107911e+000	2.107911e-005
2.511113880593290e-006	2.107828e+000	2.107828e-005
2.520879505593290e-006	2.107747e+000	2.107747e-005
2.530645130593290e-006	2.107669e+000	2.107669e-005
2.540410755593290e-006	2.107594e+000	2.107594e-005
2.550176380593290e-006	2.107519e+000	2.107519e-005
2.569707630593290e-006	2.107375e+000	2.107374e-005
2.599004505593290e-006	2.107164e+000	2.107164e-005
2.618535755593291e-006	2.107026e+000	2.107025e-005
2.638067005593291e-006	2.106886e+000	2.106886e-005
2.667363880593291e-006	2.106672e+000	2.106672e-005
2.686895130593291e-006	2.106526e+000	2.106526e-005
2.706426380593291e-006	2.106379e+000	2.106379e-005
2.716192005593291e-006	2.106305e+000	2.106306e-005
2.725957630593291e-006	2.106231e+000	2.106231e-005
2.735723255593291e-006	2.106155e+000	2.106155e-005
2.745488880593291e-006	2.106077e+000	2.106077e-005
2.755254505593291e-006	2.105997e+000	2.105997e-005
2.765020130593291e-006	2.105913e+000	2.105913e-005
2.769472010644437e-006	2.105872e+000	2.105872e-005
2.771605954324144e-006	2.105851e+000	2.105693e-005
2.771612324881282e-006	2.105851e+000	2.105701e-005
2.771625065995559e-006	2.105851e+000	2.105798e-005
2.771650548224113e-006	2.105850e+000	2.105975e-005
2.771679037470666e-006	2.105850e+000	2.105979e-005
2.771714247084717e-006	2.105849e+000	2.105934e-005
2.771766761326474e-006	2.105848e+000	2.105895e-005
2.771871789809987e-006	2.105847e+000	2.105862e-005
2.772081846777014e-006	2.105843e+000	2.105843e-005
2.772501960711068e-006	2.105835e+000	2.105841e-005
2.785105378732684e-006	2.105605e+000	2.105606e-005
2.794871003732684e-006	2.105425e+000	2.105426e-005
2.804636628732684e-006	2.105245e+000	2.105245e-005
2.814402253732684e-006	2.105066e+000	2.105066e-005
2.824167878732684e-006	2.104889e+000	2.104889e-005
2.843699128732684e-006	2.104548e+000	2.104547e-005
2.863230378732684e-006	2.104226e+000	2.104225e-005
2.872996003732684e-006	2.104073e+000	2.104073e-005
2.882761628732684e-006	2.103927e+000	2.103927e-005
2.892527253732684e-006	2.103787e+000	2.103787e-005
