time	V(vpwrout)	I(Pwrout)
Step Information: Lmatch=1n  (Run: 1/25)
0.000000000000000e+00	0.000000e+00	0.000000e+00
9.765624452758720e-14	2.399180e-15	2.392901e-20
1.456237686372858e-13	3.582145e-15	3.578714e-20
8.171691061730665e-13	2.019522e-14	2.014527e-19
1.584649491928244e-12	3.923937e-14	3.924586e-19
3.119610263438600e-12	7.791248e-14	7.794115e-19
6.189531806459311e-12	1.626422e-13	1.626727e-18
1.232937489250073e-11	3.977907e-13	3.978450e-18
2.126449886079307e-11	1.048364e-12	1.048368e-17
3.184333569941330e-11	2.669724e-12	2.669596e-17
4.206180635570294e-11	6.208656e-12	6.209047e-17
5.715730959932952e-11	1.782198e-11	1.782340e-16
7.683243548150791e-11	5.129246e-11	5.129500e-16
1.031493343390937e-10	1.436185e-10	1.436209e-15
1.317174835861650e-10	3.316674e-10	3.316743e-15
1.608454970347019e-10	6.818756e-10	6.818899e-15
2.021778078880906e-10	1.548201e-09	1.548233e-14
2.507980995078486e-10	3.324525e-09	3.324589e-14
3.177947785557454e-10	7.558007e-09	7.557934e-14
4.013545050954187e-10	1.669502e-08	1.669479e-13
5.162336766542604e-10	3.831459e-08	3.831471e-13
6.670036771934309e-10	8.713520e-08	8.713609e-13
8.773980161733923e-10	2.042305e-07	2.042324e-12
1.166048381359196e-09	4.787259e-07	4.787168e-12
1.571763194023830e-09	1.088084e-06	1.088070e-11
1.906458896744119e-09	1.822606e-06	1.822616e-11
2.084434756396411e-09	2.368394e-06	2.368396e-11
2.194576282139932e-09	2.810083e-06	2.810073e-11
2.331033160645743e-09	3.464529e-06	3.464536e-11
2.424608518648689e-09	3.982527e-06	3.982527e-11
2.527802980293598e-09	4.635790e-06	4.635738e-11
2.643148786694852e-09	5.464906e-06	5.464840e-11
2.790302039590636e-09	6.703204e-06	6.703166e-11
3.042829146721339e-09	9.331184e-06	9.331139e-11
3.454701710152374e-09	1.526550e-05	1.526546e-10
4.278446837014442e-09	3.384266e-05	3.384266e-10
5.599516933980913e-09	8.063461e-05	8.063464e-10
6.816773064084258e-09	1.445910e-04	1.445912e-09
7.755439868224319e-09	2.141043e-04	2.141045e-09
8.872645831157031e-09	3.248928e-04	3.248926e-09
1.017012865699861e-08	4.971777e-04	4.971771e-09
1.204045475807424e-08	8.271790e-04	8.271784e-09
1.376420927776545e-08	1.224963e-03	1.224963e-08
1.550489564304777e-08	1.740916e-03	1.740916e-08
1.737438433113873e-08	2.432056e-03	2.432057e-08
1.930811706814647e-08	3.335265e-03	3.335267e-08
2.251247356395658e-08	5.220328e-03	5.220330e-08
2.561593484914820e-08	7.545896e-03	7.545898e-08
2.989189693173597e-08	1.162843e-02	1.162844e-07
3.451457540781540e-08	1.723744e-02	1.723744e-07
4.083875228241475e-08	2.704841e-02	2.704841e-07
4.873602885078595e-08	4.277679e-02	4.277678e-07
5.850165385078595e-08	6.767115e-02	6.767114e-07
6.826727885078595e-08	9.916233e-02	9.916232e-07
7.803290385078595e-08	1.383426e-01	1.383426e-06
8.779852885078595e-08	1.860524e-01	1.860524e-06
9.756415385078595e-08	2.430920e-01	2.430919e-06
1.073297788507859e-07	3.101824e-01	3.101823e-06
1.170954038507859e-07	3.879464e-01	3.879464e-06
1.268610288507859e-07	4.768152e-01	4.768151e-06
1.366266538507859e-07	5.766213e-01	5.766213e-06
1.463922788507859e-07	6.860071e-01	6.860072e-06
1.561579038507859e-07	8.024167e-01	8.024168e-06
1.659235288507859e-07	9.228289e-01	9.228289e-06
1.756891538507859e-07	1.044374e+00	1.044374e-05
1.854547788507859e-07	1.164446e+00	1.164446e-05
1.952204038507859e-07	1.280651e+00	1.280650e-05
2.049860288507859e-07	1.390775e+00	1.390774e-05
2.147516538507859e-07	1.492770e+00	1.492769e-05
2.245172788507859e-07	1.584746e+00	1.584746e-05
2.342829038507859e-07	1.664977e+00	1.664977e-05
2.440485288507859e-07	1.731902e+00	1.731902e-05
2.538141538507859e-07	1.784133e+00	1.784132e-05
2.635797788507860e-07	1.820456e+00	1.820456e-05
2.733454038507860e-07	1.842250e+00	1.842251e-05
2.778867303975485e-07	1.847160e+00	1.847162e-05
2.790443906550530e-07	1.847561e+00	1.847566e-05
2.793822129636302e-07	1.847582e+00	1.847587e-05
2.795766802662875e-07	1.847582e+00	1.847584e-05
2.798099565133403e-07	1.847579e+00	1.847566e-05
2.799447452932144e-07	1.847578e+00	1.847552e-05
2.801052633594782e-07	1.847576e+00	1.847554e-05
2.802794486051511e-07	1.847575e+00	1.847566e-05
2.809671173131698e-07	1.847568e+00	1.847569e-05
2.830029066132084e-07	1.847548e+00	1.847548e-05
2.843224797992612e-07	1.847535e+00	1.847537e-05
2.851496129681493e-07	1.847527e+00	1.847264e-05
2.851513597764993e-07	1.847527e+00	1.847300e-05
2.851599313101240e-07	1.847527e+00	1.847567e-05
2.851655358805769e-07	1.847527e+00	1.847340e-05
2.851767450214829e-07	1.847526e+00	1.847433e-05
2.851925554293099e-07	1.847526e+00	1.847651e-05
2.852196633697469e-07	1.847526e+00	1.847608e-05
2.852664725545633e-07	1.847525e+00	1.847534e-05
2.853422809437323e-07	1.847525e+00	1.847534e-05
2.857018254241021e-07	1.847521e+00	1.847506e-05
2.915252925066639e-07	1.847458e+00	1.847459e-05
2.977369907280632e-07	1.847386e+00	1.847387e-05
3.075026157280631e-07	1.847265e+00	1.847265e-05
3.172682407280631e-07	1.847135e+00	1.847138e-05
3.174208286186881e-07	1.847133e+00	1.847137e-05
3.183363559624381e-07	1.847120e+00	1.847121e-05
3.195570590874381e-07	1.847102e+00	1.847100e-05
3.219984653374381e-07	1.847066e+00	1.847065e-05
3.268010943703183e-07	1.846992e+00	1.846991e-05
3.320683245739289e-07	1.846907e+00	1.846907e-05
3.368860116814178e-07	1.846826e+00	1.846826e-05
3.421490671619169e-07	1.846734e+00	1.846734e-05
3.469021872358435e-07	1.846647e+00	1.846648e-05
3.510869714988042e-07	1.846568e+00	1.846568e-05
3.547276089590545e-07	1.846496e+00	1.846496e-05
3.587602908454973e-07	1.846415e+00	1.846415e-05
3.624745175817183e-07	1.846338e+00	1.846338e-05
3.671253319736518e-07	1.846239e+00	1.846239e-05
3.730259838795687e-07	1.846107e+00	1.846107e-05
3.805159271243416e-07	1.845929e+00	1.845929e-05
3.895735038886913e-07	1.845684e+00	1.845685e-05
3.936102045031989e-07	1.845549e+00	1.845156e-05
3.936114319159043e-07	1.845548e+00	1.845274e-05
3.936138867413153e-07	1.845548e+00	1.845633e-05
3.936187963921372e-07	1.845548e+00	1.845695e-05
3.936286156937810e-07	1.845547e+00	1.845323e-05
3.938268961050199e-07	1.845536e+00	1.845499e-05
3.940374108458416e-07	1.845524e+00	1.845505e-05
3.943549515068952e-07	1.845505e+00	1.845499e-05
3.979795364969888e-07	1.845288e+00	1.845287e-05
4.015608344737560e-07	1.845079e+00	1.845079e-05
4.087234304272904e-07	1.844677e+00	1.844677e-05
4.184890554272904e-07	1.844156e+00	1.844156e-05
4.282546804272905e-07	1.843670e+00	1.843669e-05
4.380203054272905e-07	1.843218e+00	1.843217e-05
4.477859304272905e-07	1.842800e+00	1.842799e-05
4.575515554272905e-07	1.842414e+00	1.842414e-05
4.673171804272906e-07	1.842060e+00	1.842060e-05
4.770828054272906e-07	1.841739e+00	1.841739e-05
4.868484304272906e-07	1.841450e+00	1.841450e-05
4.966140554272906e-07	1.841194e+00	1.841194e-05
5.063796804272907e-07	1.840971e+00	1.840971e-05
5.161453054272907e-07	1.840781e+00	1.840781e-05
5.259109304272907e-07	1.840625e+00	1.840625e-05
5.356765554272907e-07	1.840504e+00	1.840504e-05
5.454421804272908e-07	1.840417e+00	1.840417e-05
5.552078054272908e-07	1.840361e+00	1.840361e-05
5.605803239176539e-07	1.840344e+00	1.840345e-05
5.634887548423054e-07	1.840341e+00	1.840341e-05
5.650047862750621e-07	1.840340e+00	1.840341e-05
5.661097144463775e-07	1.840340e+00	1.840341e-05
5.671228017936733e-07	1.840341e+00	1.840340e-05
5.688189416672153e-07	1.840342e+00	1.840342e-05
5.712027527248433e-07	1.840344e+00	1.840345e-05
5.734614989018836e-07	1.840348e+00	1.840348e-05
5.774437973355991e-07	1.840357e+00	1.840357e-05
5.832585260438416e-07	1.840375e+00	1.840375e-05
5.930241510438416e-07	1.840418e+00	1.840418e-05
6.027897760438416e-07	1.840476e+00	1.840476e-05
6.125554010438417e-07	1.840549e+00	1.840549e-05
6.223210260438417e-07	1.840636e+00	1.840636e-05
6.320866510438417e-07	1.840738e+00	1.840738e-05
6.418522760438417e-07	1.840853e+00	1.840853e-05
6.516179010438418e-07	1.840981e+00	1.840980e-05
6.613835260438418e-07	1.841120e+00	1.841119e-05
6.711491510438418e-07	1.841269e+00	1.841268e-05
6.809147760438418e-07	1.841425e+00	1.841425e-05
6.906804010438419e-07	1.841588e+00	1.841588e-05
7.004460260438419e-07	1.841755e+00	1.841755e-05
7.102116510438419e-07	1.841925e+00	1.841925e-05
7.199772760438419e-07	1.842099e+00	1.842099e-05
7.297429010438420e-07	1.842276e+00	1.842276e-05
7.395085260438420e-07	1.842453e+00	1.842453e-05
7.492741510438420e-07	1.842631e+00	1.842631e-05
7.590397760438420e-07	1.842808e+00	1.842808e-05
7.688054010438421e-07	1.842982e+00	1.842982e-05
7.785710260438421e-07	1.843154e+00	1.843154e-05
7.883366510438421e-07	1.843323e+00	1.843323e-05
7.981022760438421e-07	1.843486e+00	1.843486e-05
8.078679010438422e-07	1.843641e+00	1.843641e-05
8.176335260438422e-07	1.843787e+00	1.843787e-05
8.273991510438422e-07	1.843921e+00	1.843920e-05
8.371647760438422e-07	1.844041e+00	1.844041e-05
8.469304010438423e-07	1.844148e+00	1.844148e-05
8.566960260438423e-07	1.844238e+00	1.844238e-05
8.664616510438423e-07	1.844312e+00	1.844312e-05
8.762272760438423e-07	1.844369e+00	1.844368e-05
8.859929010438424e-07	1.844406e+00	1.844406e-05
8.957585260438424e-07	1.844424e+00	1.844425e-05
9.055241510438424e-07	1.844423e+00	1.844423e-05
9.152897760438424e-07	1.844401e+00	1.844401e-05
9.250554010438425e-07	1.844358e+00	1.844358e-05
9.348210260438425e-07	1.844301e+00	1.844160e-05
9.348234102296335e-07	1.844301e+00	1.844237e-05
9.348281786012156e-07	1.844301e+00	1.844578e-05
9.348329149271250e-07	1.844301e+00	1.844764e-05
9.348388616351761e-07	1.844301e+00	1.844696e-05
9.348491709292965e-07	1.844301e+00	1.844494e-05
9.348617811400508e-07	1.844301e+00	1.844408e-05
9.348833583097431e-07	1.844300e+00	1.844438e-05
9.349153417825907e-07	1.844300e+00	1.844411e-05
9.349650782404365e-07	1.844300e+00	1.844350e-05
9.350454581857405e-07	1.844299e+00	1.844317e-05
9.357074854783026e-07	1.844294e+00	1.844301e-05
9.404334605634359e-07	1.844254e+00	1.844253e-05
9.458345749464455e-07	1.844203e+00	1.844203e-05
9.556001999464454e-07	1.844098e+00	1.844098e-05
9.653658249464454e-07	1.843979e+00	1.843978e-05
9.751314499464454e-07	1.843844e+00	1.843844e-05
9.848970749464455e-07	1.843695e+00	1.843695e-05
9.946626999464455e-07	1.843531e+00	1.843531e-05
1.004428324946446e-06	1.843355e+00	1.843354e-05
1.014193949946446e-06	1.843166e+00	1.843165e-05
1.023959574946446e-06	1.842965e+00	1.842965e-05
1.033725199946446e-06	1.842754e+00	1.842754e-05
1.043518280646780e-06	1.842534e+00	1.842538e-05
1.044926657092490e-06	1.842501e+00	1.842503e-05
1.046347962513862e-06	1.842467e+00	1.842468e-05
1.048150092171159e-06	1.842424e+00	1.842424e-05
1.051754351485752e-06	1.842335e+00	1.842335e-05
1.057264233334193e-06	1.842197e+00	1.842196e-05
1.063234983882526e-06	1.842043e+00	1.842043e-05
1.068670643661324e-06	1.841902e+00	1.841901e-05
1.074014548141977e-06	1.841761e+00	1.841761e-05
1.079479766457489e-06	1.841618e+00	1.841617e-05
1.085314459516142e-06	1.841465e+00	1.841465e-05
1.091446087824886e-06	1.841307e+00	1.841307e-05
1.098121114026987e-06	1.841136e+00	1.841136e-05
1.105512351779849e-06	1.840951e+00	1.840950e-05
1.114126370843722e-06	1.840738e+00	1.840738e-05
1.123891995843722e-06	1.840498e+00	1.840498e-05
1.129771702262370e-06	1.840352e+00	1.840370e-05
1.129790775748698e-06	1.840352e+00	1.840375e-05
1.129828922721354e-06	1.840350e+00	1.840387e-05
1.129853645345171e-06	1.840349e+00	1.840387e-05
1.129888316831623e-06	1.840348e+00	1.840387e-05
1.129923811937063e-06	1.840346e+00	1.840377e-05
1.129971631826408e-06	1.840344e+00	1.840354e-05
1.130043520587884e-06	1.840341e+00	1.840335e-05
1.130146883864641e-06	1.840336e+00	1.840324e-05
1.130324516468414e-06	1.840328e+00	1.840315e-05
1.130617199231516e-06	1.840314e+00	1.840305e-05
1.133696011651958e-06	1.840170e+00	1.840170e-05
1.140853854497767e-06	1.839858e+00	1.839857e-05
1.149606026663893e-06	1.839512e+00	1.839512e-05
1.159371651663893e-06	1.839168e+00	1.839168e-05
1.169137276663893e-06	1.838873e+00	1.838873e-05
1.178902901663893e-06	1.838629e+00	1.838629e-05
1.188668526663893e-06	1.838436e+00	1.838436e-05
1.198434151663893e-06	1.838296e+00	1.838296e-05
1.208199776663893e-06	1.838201e+00	1.838202e-05
1.213682011833373e-06	1.838169e+00	1.838170e-05
1.216995366485877e-06	1.838159e+00	1.838159e-05
1.218659661014340e-06	1.838157e+00	1.838156e-05
1.219700614959062e-06	1.838156e+00	1.838153e-05
1.220072491144996e-06	1.838156e+00	1.838152e-05
1.220474233214719e-06	1.838156e+00	1.838151e-05
1.220769930147853e-06	1.838156e+00	1.838155e-05
1.221001610021849e-06	1.838156e+00	1.838160e-05
1.221239373764812e-06	1.838156e+00	1.838160e-05
1.221589290927126e-06	1.838156e+00	1.838154e-05
1.223663227892252e-06	1.838157e+00	1.838153e-05
1.226517083925734e-06	1.838161e+00	1.838160e-05
1.229393226828877e-06	1.838168e+00	1.838169e-05
1.235145512635163e-06	1.838189e+00	1.838189e-05
1.244911137635163e-06	1.838241e+00	1.838241e-05
1.254676762635163e-06	1.838314e+00	1.838314e-05
1.264442387635163e-06	1.838410e+00	1.838409e-05
1.274208012635163e-06	1.838526e+00	1.838526e-05
1.283973637635163e-06	1.838663e+00	1.838663e-05
1.293739262635163e-06	1.838820e+00	1.838820e-05
1.303504887635163e-06	1.838995e+00	1.838995e-05
1.313270512635163e-06	1.839188e+00	1.839188e-05
1.323036137635163e-06	1.839398e+00	1.839398e-05
1.332801762635163e-06	1.839622e+00	1.839622e-05
1.342567387635163e-06	1.839858e+00	1.839858e-05
1.352333012635163e-06	1.840101e+00	1.840102e-05
1.362098637635163e-06	1.840350e+00	1.840350e-05
1.371864262635163e-06	1.840601e+00	1.840601e-05
1.381629887635163e-06	1.840853e+00	1.840853e-05
1.391395512635163e-06	1.841105e+00	1.841105e-05
1.401161137635163e-06	1.841355e+00	1.841355e-05
1.410926762635163e-06	1.841601e+00	1.841601e-05
1.420692387635163e-06	1.841843e+00	1.841843e-05
1.430458012635163e-06	1.842077e+00	1.842077e-05
1.440223637635163e-06	1.842304e+00	1.842304e-05
1.449989262635163e-06	1.842521e+00	1.842521e-05
1.459754887635163e-06	1.842726e+00	1.842727e-05
1.469520512635163e-06	1.842920e+00	1.842920e-05
1.479286137635164e-06	1.843101e+00	1.843101e-05
1.489051762635164e-06	1.843268e+00	1.843268e-05
1.498817387635164e-06	1.843421e+00	1.843420e-05
1.508583012635164e-06	1.843557e+00	1.843556e-05
1.518348637635164e-06	1.843675e+00	1.843675e-05
1.528114262635164e-06	1.843774e+00	1.843773e-05
1.537879887635164e-06	1.843850e+00	1.843850e-05
1.547645512635164e-06	1.843903e+00	1.843903e-05
1.557411137635164e-06	1.843929e+00	1.843929e-05
1.567176762635164e-06	1.843928e+00	1.843928e-05
1.576942387635164e-06	1.843899e+00	1.843899e-05
1.586708012635164e-06	1.843842e+00	1.843842e-05
1.596473637635164e-06	1.843761e+00	1.843762e-05
1.601390254910574e-06	1.843713e+00	1.843121e-05
1.601392293478695e-06	1.843713e+00	1.842923e-05
1.601396370614937e-06	1.843713e+00	1.842903e-05
1.601405471583077e-06	1.843713e+00	1.843953e-05
1.601414731352621e-06	1.843712e+00	1.843832e-05
1.601425803711608e-06	1.843712e+00	1.843832e-05
1.601445331106911e-06	1.843712e+00	1.843795e-05
1.601474247588915e-06	1.843712e+00	1.843739e-05
1.601519299928026e-06	1.843711e+00	1.843722e-05
1.601592721264630e-06	1.843710e+00	1.843707e-05
1.602225927570971e-06	1.843703e+00	1.843701e-05
1.606945161384970e-06	1.843645e+00	1.843646e-05
1.612338571458112e-06	1.843573e+00	1.843573e-05
1.622104196458112e-06	1.843431e+00	1.843430e-05
1.631869821458112e-06	1.843275e+00	1.843275e-05
1.641635446458112e-06	1.843106e+00	1.843106e-05
1.651401071458112e-06	1.842925e+00	1.842926e-05
1.661166696458112e-06	1.842734e+00	1.842734e-05
1.670932321458112e-06	1.842533e+00	1.842534e-05
1.680697946458112e-06	1.842325e+00	1.842326e-05
1.690463571458113e-06	1.842111e+00	1.842111e-05
1.700229196458113e-06	1.841891e+00	1.841891e-05
1.709994821458113e-06	1.841669e+00	1.841669e-05
1.719760446458113e-06	1.841444e+00	1.841445e-05
1.729526071458113e-06	1.841219e+00	1.841219e-05
1.736638442060722e-06	1.841054e+00	1.841060e-05
1.737030445721276e-06	1.841045e+00	1.841053e-05
1.738598460363489e-06	1.841008e+00	1.841013e-05
1.740689146553108e-06	1.840959e+00	1.840960e-05
1.744870518932345e-06	1.840860e+00	1.840861e-05
1.750371380931715e-06	1.840728e+00	1.840728e-05
1.755982360842439e-06	1.840592e+00	1.840592e-05
1.761909681945991e-06	1.840449e+00	1.840449e-05
1.767715679734261e-06	1.840309e+00	1.840310e-05
1.774168875720134e-06	1.840156e+00	1.840156e-05
1.781091215334011e-06	1.839993e+00	1.839993e-05
1.789219994599444e-06	1.839806e+00	1.839806e-05
1.798579655080634e-06	1.839598e+00	1.839598e-05
1.808345280080634e-06	1.839390e+00	1.839390e-05
1.818110905080634e-06	1.839193e+00	1.839193e-05
1.827876530080634e-06	1.839009e+00	1.839009e-05
1.837642155080634e-06	1.838840e+00	1.838840e-05
1.847407780080634e-06	1.838690e+00	1.838690e-05
1.857173405080634e-06	1.838558e+00	1.838558e-05
1.866939030080634e-06	1.838446e+00	1.838446e-05
1.876704655080634e-06	1.838355e+00	1.838354e-05
1.886470280080634e-06	1.838283e+00	1.838283e-05
1.896235905080634e-06	1.838231e+00	1.838231e-05
1.906001530080634e-06	1.838197e+00	1.838197e-05
1.910226421522467e-06	1.838188e+00	1.838188e-05
1.913279465695260e-06	1.838185e+00	1.838185e-05
1.916148378087963e-06	1.838184e+00	1.838184e-05
1.918867512650454e-06	1.838184e+00	1.838184e-05
1.920839190976535e-06	1.838186e+00	1.838186e-05
1.922622382001648e-06	1.838188e+00	1.838188e-05
1.926188764051874e-06	1.838195e+00	1.838196e-05
1.933321528152325e-06	1.838217e+00	1.838217e-05
1.943087153152325e-06	1.838262e+00	1.838263e-05
1.952852778152325e-06	1.838323e+00	1.838323e-05
1.962618403152325e-06	1.838400e+00	1.838400e-05
1.972384028152325e-06	1.838492e+00	1.838492e-05
1.982149653152325e-06	1.838598e+00	1.838598e-05
1.991915278152325e-06	1.838717e+00	1.838717e-05
2.001680903152325e-06	1.838846e+00	1.838847e-05
2.011446528152325e-06	1.838987e+00	1.838987e-05
2.021212153152325e-06	1.839136e+00	1.839136e-05
2.030977778152326e-06	1.839293e+00	1.839294e-05
2.040743403152326e-06	1.839457e+00	1.839457e-05
2.050509028152326e-06	1.839625e+00	1.839625e-05
2.060274653152326e-06	1.839798e+00	1.839798e-05
2.070040278152326e-06	1.839974e+00	1.839974e-05
2.079805903152326e-06	1.840150e+00	1.840151e-05
2.089571528152326e-06	1.840326e+00	1.840327e-05
2.099337153152326e-06	1.840499e+00	1.840499e-05
2.109102778152326e-06	1.840668e+00	1.840668e-05
2.118868403152326e-06	1.840831e+00	1.840831e-05
2.128634028152326e-06	1.840987e+00	1.840986e-05
2.138399653152326e-06	1.841134e+00	1.841134e-05
2.148165278152326e-06	1.841273e+00	1.841273e-05
2.157930903152326e-06	1.841402e+00	1.841402e-05
2.167696528152326e-06	1.841521e+00	1.841521e-05
2.177462153152326e-06	1.841629e+00	1.841629e-05
2.187227778152326e-06	1.841725e+00	1.841725e-05
2.196993403152326e-06	1.841809e+00	1.841808e-05
2.206759028152326e-06	1.841879e+00	1.841879e-05
2.216524653152326e-06	1.841935e+00	1.841936e-05
2.226290278152326e-06	1.841976e+00	1.841976e-05
2.236055903152326e-06	1.842002e+00	1.842002e-05
2.245821528152326e-06	1.842011e+00	1.842012e-05
2.255587153152326e-06	1.842006e+00	1.842006e-05
2.265352778152326e-06	1.841984e+00	1.841984e-05
2.275118403152326e-06	1.841948e+00	1.841948e-05
2.284884028152326e-06	1.841899e+00	1.841899e-05
2.294649653152326e-06	1.841839e+00	1.841838e-05
2.301283812836196e-06	1.841792e+00	1.841788e-05
2.301314681284341e-06	1.841792e+00	1.841786e-05
2.301376418180631e-06	1.841792e+00	1.841817e-05
2.301401067029749e-06	1.841791e+00	1.841830e-05
2.301767230611023e-06	1.841788e+00	1.841785e-05
2.307267166996944e-06	1.841743e+00	1.841743e-05
2.312904344416631e-06	1.841693e+00	1.841693e-05
2.322669969416631e-06	1.841599e+00	1.841599e-05
2.332435594416631e-06	1.841498e+00	1.841498e-05
2.342201219416631e-06	1.841389e+00	1.841389e-05
2.351966844416631e-06	1.841275e+00	1.841275e-05
2.361732469416631e-06	1.841156e+00	1.841157e-05
2.371498094416631e-06	1.841035e+00	1.841035e-05
2.381263719416631e-06	1.840911e+00	1.840911e-05
2.391029344416631e-06	1.840787e+00	1.840787e-05
2.400794969416631e-06	1.840664e+00	1.840664e-05
2.410560594416631e-06	1.840543e+00	1.840543e-05
2.420326219416631e-06	1.840425e+00	1.840425e-05
2.430091844416631e-06	1.840309e+00	1.840309e-05
2.439857469416631e-06	1.840197e+00	1.840197e-05
2.449623094416631e-06	1.840090e+00	1.840090e-05
2.459388719416631e-06	1.839986e+00	1.839983e-05
2.459541307307256e-06	1.839985e+00	1.839981e-05
